T330C 125799:315.957   SEGGER J-Link V7.86d Log File
T330C 125799:316.026   DLL Compiled: Mar 15 2023 13:51:13
T330C 125799:316.033   Logging started @ 2023-11-03 03:40
T330C 125799:316.039 - 14174.510ms
T330C 125799:316.049 JLINK_SetWarnOutHandler(...)
T330C 125799:316.055 - 0.009ms
T330C 125799:316.062 JLINK_OpenEx(...)
T330C 125799:317.949   Firmware: J-Link V9 compiled May  7 2021 16:26:12
T330C 125799:318.648   Firmware: J-Link V9 compiled May  7 2021 16:26:12
T330C 125799:318.799   Decompressing FW timestamp took 115 us
T330C 125799:326.705   Hardware: V9.70
T330C 125799:326.735   S/N: 69705763
T330C 125799:326.744   OEM: SEGGER
T330C 125799:326.753   Feature(s): JFlash, FlashDL, FlashBP
T330C 125799:328.577   TELNET listener socket opened on port 19021
T330C 125799:333.222   WEBSRV WEBSRV_Init(): Starting webserver thread(s)
T330C 125799:333.439   WEBSRV Webserver running on local port 19080
T330C 125799:338.805 - 22.769ms returns "O.K."
T330C 125799:338.855 JLINK_GetEmuCaps()
T330C 125799:338.863 - 0.011ms returns 0xB9FF7BBF
T330C 125799:338.873 JLINK_TIF_GetAvailable(...)
T330C 125799:339.160 - 0.304ms
T330C 125799:339.191 JLINK_SetErrorOutHandler(...)
T330C 125799:339.201 - 0.014ms
T330C 125799:339.618 JLINK_ExecCommand("ProjectFile = "C:\Users\JACK WANG\Projects\KT\KT\DeliverVersion\KT_FAN_2\KEIL_PRJ\JLinkSettings.ini"", ...). 
T330C 125799:341.203 - 1.600ms returns 0x00
T330C 125799:341.263 JLINK_ExecCommand("Device = MM32SPIN0280D6P", ...). 
T330C 125799:341.543   Flash bank @ 0x08000000: SFL: Parsing sectorization info from ELF file
T330C 125799:341.558     FlashDevice.SectorInfo[0]: .SectorSize = 0x00000400, .SectorStartAddr = 0x00000000
T330C 125799:341.568   OFL: Init() present @ offset 0x0000000D
T330C 125799:341.577   OFL: UnInit() present @ offset 0x00000051
T330C 125799:341.586   OFL: EraseSector() present @ offset 0x000001C3
T330C 125799:341.595   OFL: ProgramPage() present @ offset 0x0000022F
T330C 125799:341.603   OFL: EraseChip() present @ offset 0x000001AF
T330C 125799:341.612   OFL: BlankCheck() present @ offset 0x00000229
T330C 125799:341.621   OFL: Verify() N/A
T330C 125799:341.630   OFL: SEGGER_FL_Erase() N/A
T330C 125799:341.638   OFL: SEGGER_OPEN_Erase() N/A
T330C 125799:341.647   OFL: SEGGER_FL_Program() N/A
T330C 125799:341.655   OFL: SEGGER_OPEN_Program() N/A
T330C 125799:341.664   OFL: SEGGER_FL_Read() N/A
T330C 125799:341.672   OFL: SEGGER_OPEN_Read() N/A
T330C 125799:341.681   OFL: SEGGER_FL_CalcCRC() N/A
T330C 125799:341.690   OFL: SEGGER_OPEN_CalcCRC() N/A
T330C 125799:341.699   OFL: SEGGER_FL_Start() N/A
T330C 125799:341.708   OFL: SEGGER_OPEN_Start() N/A
T330C 125799:341.717   OFL: SEGGER_FL_GetFlashInfo() N/A
T330C 125799:341.726   OFL: SEGGER_OPEN_GetFlashInfo() N/A
T330C 125799:341.735   OFL: SEGGER_FL_Verify() N/A
T330C 125799:341.743   OFL: SEGGER_FL_CheckBlank() N/A
T330C 125799:341.752   OFL: SEGGER_FL_Prepare() N/A
T330C 125799:341.761   OFL: SEGGER_FL_Restore() N/A
T330C 125799:341.769   OFL: SEGGER_FL_EraseChip() N/A
T330C 125799:341.836   Device "MM32SPIN0280D6P" selected.
T330C 125799:342.183 - 0.914ms returns 0x00
T330C 125799:342.196 JLINK_ExecCommand("DisableConnectionTimeout", ...). 
T330C 125799:342.205 - 0.004ms returns 0x01
T330C 125799:342.217 JLINK_GetHardwareVersion()
T330C 125799:342.224 - 0.009ms returns 97000
T330C 125799:342.232 JLINK_GetDLLVersion()
T330C 125799:342.238 - 0.009ms returns 78604
T330C 125799:342.245 JLINK_GetOEMString(...)
T330C 125799:342.253 JLINK_GetFirmwareString(...)
T330C 125799:342.259 - 0.009ms
T330C 125799:342.284 JLINK_GetDLLVersion()
T330C 125799:342.290 - 0.009ms returns 78604
T330C 125799:342.298 JLINK_GetCompileDateTime()
T330C 125799:342.304 - 0.009ms
T330C 125799:342.318 JLINK_GetFirmwareString(...)
T330C 125799:342.327 - 0.011ms
T330C 125799:342.337 JLINK_GetHardwareVersion()
T330C 125799:342.343 - 0.009ms returns 97000
T330C 125799:342.353 JLINK_GetSN()
T330C 125799:342.360 - 0.009ms returns 69705763
T330C 125799:342.369 JLINK_GetOEMString(...)
T330C 125799:342.388 JLINK_TIF_Select(JLINKARM_TIF_SWD)
T330C 125799:344.128 - 1.756ms returns 0x00
T330C 125799:344.153 JLINK_HasError()
T330C 125799:344.163 JLINK_SetSpeed(5000)
T330C 125799:344.419 - 0.268ms
T330C 125799:344.440 JLINK_GetId()
T330C 125799:346.954   ConfigTargetSettings() start
T330C 125799:346.968    J-Link Script File: Executing ConfigTargetSettings()
T330C 125799:346.978   [ConfigTargetSettings]
T330C 125799:347.677   ConfigTargetSettings() end - Took 700us
T330C 125799:347.698   InitTarget() start
T330C 125799:347.706    J-Link Script File: Executing InitTarget()
T330C 125799:349.666   InitTarget() end - Took 1.95ms
T330C 125799:350.632   Found SW-DP with ID 0x0BB11477
T330C 125799:353.287   DPIDR: 0x0BB11477
T330C 125799:353.319   CoreSight SoC-400 or earlier
T330C 125799:353.332   AP map detection skipped. Manually configured AP map found.
T330C 125799:353.344   AP[0]: AHB-AP (IDR: Not set)
T330C 125799:354.485   AP[0]: Core found
T330C 125799:354.501   AP[0]: AHB-AP ROM base: 0xE00FF000
T330C 125799:355.162   CPUID register: 0x410CC200. Implementer code: 0x41 (ARM)
T330C 125799:355.176   Found Cortex-M0 r0p0, Little endian.
T330C 125799:355.606   -- Max. mem block: 0x00010E60
T330C 125799:356.094   CPU_ReadMem(4 bytes @ 0xE000EDF0)
T330C 125799:356.432   CPU_WriteMem(4 bytes @ 0xE000EDF0)
T330C 125799:356.799   CPU_ReadMem(4 bytes @ 0xE0002000)
T330C 125799:357.212   FPUnit: 4 code (BP) slots and 0 literal slots
T330C 125799:357.223   CPU_ReadMem(4 bytes @ 0xE000EDFC)
T330C 125799:357.561   CPU_ReadMem(4 bytes @ 0xE0001000)
T330C 125799:357.928   CPU_WriteMem(4 bytes @ 0xE0001000)
T330C 125799:358.286   CoreSight components:
T330C 125799:358.298   ROMTbl[0] @ E00FF000
T330C 125799:358.309   CPU_ReadMem(64 bytes @ 0xE00FF000)
T330C 125799:359.046   CPU_ReadMem(32 bytes @ 0xE000EFE0)
T330C 125799:359.532   [0][0]: E000E000 CID B105E00D PID 000BB008 SCS
T330C 125799:359.542   CPU_ReadMem(32 bytes @ 0xE0001FE0)
T330C 125799:360.089   [0][1]: E0001000 CID B105E00D PID 000BB00A DWT
T330C 125799:360.100   CPU_ReadMem(32 bytes @ 0xE0002FE0)
T330C 125799:360.604   [0][2]: E0002000 CID B105E00D PID 000BB00B FPB
T330C 125799:360.963 - 16.527ms returns 0x0BB11477
T330C 125799:360.975 JLINK_GetDLLVersion()
T330C 125799:360.981 - 0.009ms returns 78604
T330C 125799:360.994 JLINK_CORE_GetFound()
T330C 125799:361.001 - 0.009ms returns 0x60000FF
T330C 125799:361.010 JLINK_GetDebugInfo(0x100 = JLINKARM_ROM_TABLE_ADDR_INDEX)
T330C 125799:361.017   Value=0xE00FF000
T330C 125799:361.026 - 0.018ms returns 0
T330C 125799:361.037 JLINK_GetDebugInfo(0x100 = JLINKARM_ROM_TABLE_ADDR_INDEX)
T330C 125799:361.044   Value=0xE00FF000
T330C 125799:361.052 - 0.017ms returns 0
T330C 125799:361.059 JLINK_GetDebugInfo(0x101 = JLINKARM_DEBUG_INFO_ETM_ADDR_INDEX)
T330C 125799:361.065   Value=0x00000000
T330C 125799:361.074 - 0.017ms returns 0
T330C 125799:361.082 JLINK_ReadMemEx(0xE0041FF0, 0x10 Bytes, Flags = 0x02000004)
T330C 125799:361.094   CPU_ReadMem(16 bytes @ 0xE0041FF0)
T330C 125799:361.497   Data:  00 00 00 00 00 00 00 00 00 00 00 00 00 00 00 00
T330C 125799:361.506 - 0.427ms returns 16 (0x10)
T330C 125799:361.514 JLINK_GetDebugInfo(0x102 = JLINKARM_DEBUG_INFO_MTB_ADDR_INDEX)
T330C 125799:361.520   Value=0x00000000
T330C 125799:361.529 - 0.017ms returns 0
T330C 125799:361.535 JLINK_GetDebugInfo(0x103 = JLINKARM_DEBUG_INFO_TPIU_ADDR_INDEX)
T330C 125799:361.542   Value=0x00000000
T330C 125799:361.550 - 0.017ms returns 0
T330C 125799:361.557 JLINK_ReadMemEx(0xE0040FF0, 0x10 Bytes, Flags = 0x02000004)
T330C 125799:361.571   CPU_ReadMem(16 bytes @ 0xE0040FF0)
T330C 125799:361.999   Data:  00 00 00 00 00 00 00 00 00 00 00 00 00 00 00 00
T330C 125799:362.008 - 0.454ms returns 16 (0x10)
T330C 125799:362.016 JLINK_GetDebugInfo(0x104 = JLINKARM_DEBUG_INFO_ITM_ADDR_INDEX)
T330C 125799:362.022   Value=0xE0000000
T330C 125799:362.030 - 0.017ms returns 0
T330C 125799:362.037 JLINK_GetDebugInfo(0x105 = JLINKARM_DEBUG_INFO_DWT_ADDR_INDEX)
T330C 125799:362.043   Value=0xE0001000
T330C 125799:362.054 - 0.021ms returns 0
T330C 125799:362.062 JLINK_GetDebugInfo(0x106 = JLINKARM_DEBUG_INFO_FPB_ADDR_INDEX)
T330C 125799:362.068   Value=0xE0002000
T330C 125799:362.076 - 0.017ms returns 0
T330C 125799:362.083 JLINK_GetDebugInfo(0x107 = JLINKARM_DEBUG_INFO_NVIC_ADDR_INDEX)
T330C 125799:362.089   Value=0xE000E000
T330C 125799:362.098 - 0.017ms returns 0
T330C 125799:362.104 JLINK_GetDebugInfo(0x10C = JLINKARM_DEBUG_INFO_DBG_ADDR_INDEX)
T330C 125799:362.111   Value=0xE000EDF0
T330C 125799:362.119 - 0.017ms returns 0
T330C 125799:362.126 JLINK_GetDebugInfo(0x01 = Unknown)
T330C 125799:362.132   Value=0x00000000
T330C 125799:362.140 - 0.017ms returns 0
T330C 125799:362.148 JLINK_ReadMemU32(0xE000ED00, 0x1 Items)
T330C 125799:362.155   CPU_ReadMem(4 bytes @ 0xE000ED00)
T330C 125799:362.513   Data:  00 C2 0C 41
T330C 125799:362.523   Debug reg: CPUID
T330C 125799:362.532 - 0.386ms returns 1 (0x1)
T330C 125799:362.539 JLINK_GetDebugInfo(0x10F = JLINKARM_DEBUG_INFO_HAS_CORTEX_M_SECURITY_EXT_INDEX)
T330C 125799:362.545   Value=0x00000000
T330C 125799:362.554 - 0.018ms returns 0
T330C 125799:362.562 JLINK_HasError()
T330C 125799:362.570 JLINK_SetResetType(JLINKARM_CM3_RESET_TYPE_NORMAL)
T330C 125799:362.576 - 0.009ms returns JLINKARM_CM3_RESET_TYPE_NORMAL
T330C 125799:362.584 JLINK_Reset()
T330C 125799:362.593   CPU is running
T330C 125799:362.602   CPU_WriteMem(4 bytes @ 0xE000EDF0)
T330C 125799:362.925   CPU is running
T330C 125799:362.935   CPU_WriteMem(4 bytes @ 0xE000EDFC)
T330C 125799:363.240   Reset: Halt core after reset via DEMCR.VC_CORERESET.
T330C 125799:363.709   Reset: Reset device via AIRCR.SYSRESETREQ.
T330C 125799:363.719   CPU is running
T330C 125799:363.729   CPU_WriteMem(4 bytes @ 0xE000ED0C)
T330C 125799:418.294   CPU_ReadMem(4 bytes @ 0xE000EDF0)
T330C 125799:419.151   CPU_ReadMem(4 bytes @ 0xE000EDF0)
T330C 125799:422.847   CPU_WriteMem(4 bytes @ 0xE000EDFC)
T330C 125799:428.902   CPU_ReadMem(4 bytes @ 0xE000EDF0)
T330C 125799:432.493   CPU_WriteMem(4 bytes @ 0xE0002000)
T330C 125799:433.373   CPU_ReadMem(4 bytes @ 0xE000EDFC)
T330C 125799:434.056   CPU_ReadMem(4 bytes @ 0xE0001000)
T330C 125799:434.765   CPU_WriteMem(4 bytes @ 0xE0001000)
T330C 125799:435.440 - 72.892ms
T330C 125799:435.654 JLINK_HasError()
T330C 125799:435.718 JLINK_ReadReg(R15 (PC))
T330C 125799:435.744 - 0.035ms returns 0x080000D4
T330C 125799:435.766 JLINK_ReadReg(XPSR)
T330C 125799:435.784 - 0.027ms returns 0xC1000000
T330C 125799:435.808 JLINK_Halt()
T330C 125799:435.825 - 0.026ms returns 0x00
T330C 125799:435.846 JLINK_ReadMemU32(0xE000EDF0, 0x1 Items)
T330C 125799:435.875   CPU_ReadMem(4 bytes @ 0xE000EDF0)
T330C 125799:436.556   Data:  03 00 03 00
T330C 125799:436.611   Debug reg: DHCSR
T330C 125799:436.637 - 0.800ms returns 1 (0x1)
T330C 125799:436.669 JLINK_WriteU32_64(0xE000EDF0, 0xA05F0003)
T330C 125799:436.688   Debug reg: DHCSR
T330C 125799:437.187   CPU_WriteMem(4 bytes @ 0xE000EDF0)
T330C 125799:437.965 - 1.332ms returns 0 (0x00000000)
T330C 125799:438.020 JLINK_WriteU32_64(0xE000EDFC, 0x01000000)
T330C 125799:438.041   Debug reg: DEMCR
T330C 125799:438.078   CPU_WriteMem(4 bytes @ 0xE000EDFC)
T330C 125799:438.892 - 0.908ms returns 0 (0x00000000)
T330C 125799:439.014 JLINK_GetHWStatus(...)
T330C 125799:439.689 - 0.710ms returns 0
T330C 125799:439.795 JLINK_GetNumBPUnits(Type = 0xFFFFFF00)
T330C 125799:439.818 - 0.032ms returns 0x04
T330C 125799:439.839 JLINK_GetNumBPUnits(Type = 0xF0)
T330C 125799:439.857 - 0.026ms returns 0x2000
T330C 125799:439.878 JLINK_GetNumWPUnits()
T330C 125799:439.896 - 0.026ms returns 2
T330C 125799:439.938 JLINK_GetSpeed()
T330C 125799:439.956 - 0.027ms returns 4000
T330C 125799:439.989 JLINK_ReadMemU32(0xE000E004, 0x1 Items)
T330C 125799:440.018   CPU_ReadMem(4 bytes @ 0xE000E004)
T330C 125799:440.825   Data:  00 00 00 00
T330C 125799:440.880 - 0.900ms returns 1 (0x1)
T330C 125799:440.929 JLINK_HasError()
T330C 125799:440.953 JLINK_ReadReg(R15 (PC))
T330C 125799:440.976 - 0.032ms returns 0x080000D4
T330C 125799:440.996 JLINK_ReadReg(XPSR)
T330C 125799:441.022 - 0.034ms returns 0xC1000000
T330C 125799:531.724 JLINK_HasError()
T330C 125799:531.763 JLINK_SetResetType(JLINKARM_CM3_RESET_TYPE_NORMAL)
T330C 125799:531.770 - 0.009ms returns JLINKARM_CM3_RESET_TYPE_NORMAL
T330C 125799:531.777 JLINK_Reset()
T330C 125799:531.811   CPU_WriteMem(4 bytes @ 0xE000EDF0)
T330C 125799:532.393   CPU_WriteMem(4 bytes @ 0xE000EDFC)
T330C 125799:532.864   Reset: Halt core after reset via DEMCR.VC_CORERESET.
T330C 125799:533.370   Reset: Reset device via AIRCR.SYSRESETREQ.
T330C 125799:533.381   CPU_WriteMem(4 bytes @ 0xE000ED0C)
T330C 125799:587.696   CPU_ReadMem(4 bytes @ 0xE000EDF0)
T330C 125799:588.493   CPU_ReadMem(4 bytes @ 0xE000EDF0)
T330C 125799:589.259   CPU_WriteMem(4 bytes @ 0xE000EDFC)
T330C 125799:595.294   CPU_ReadMem(4 bytes @ 0xE000EDF0)
T330C 125799:599.031   CPU_WriteMem(4 bytes @ 0xE0002000)
T330C 125799:599.823   CPU_ReadMem(4 bytes @ 0xE000EDFC)
T330C 125799:600.679   CPU_ReadMem(4 bytes @ 0xE0001000)
T330C 125799:601.496   CPU_WriteMem(4 bytes @ 0xE0001000)
T330C 125799:602.107 - 70.367ms
T330C 125799:602.355 JLINK_HasError()
T330C 125799:602.411 JLINK_ReadReg(R15 (PC))
T330C 125799:602.436 - 0.035ms returns 0x080000D4
T330C 125799:602.458 JLINK_ReadReg(XPSR)
T330C 125799:602.476 - 0.027ms returns 0xC1000000
T330C 125799:603.400 JLINK_ReadMemEx(0x080000D4, 0x3C Bytes, Flags = 0x02000000)
T330C 125799:603.443   CPU_ReadMem(128 bytes @ 0x080000C0)
T330C 125799:605.236    -- Updating C cache (128 bytes @ 0x080000C0)
T330C 125799:605.292    -- Read from C cache (60 bytes @ 0x080000D4)
T330C 125799:605.322   Data:  06 48 80 F3 08 88 06 48 80 47 06 48 00 47 FE E7 ...
T330C 125799:605.348 - 1.956ms returns 60 (0x3C)
T330C 125799:733.170 JLINK_ReadMemEx(0x40012400, 0x74 Bytes, Flags = 0x02000004)
T330C 125799:733.226   CPU_ReadMem(116 bytes @ 0x40012400)
T330C 125799:734.122   Data:  00 00 00 00 00 00 00 00 00 00 00 00 00 00 00 00 ...
T330C 125799:734.184 - 1.018ms returns 116 (0x74)
T330C 125799:734.263 JLINK_ReadMemEx(0x40012474, 0x4 Bytes, Flags = 0x02000004)
T330C 125799:734.282   CPU_ReadMem(4 bytes @ 0x40012474)
T330C 125799:734.704   Data:  00 00 00 00
T330C 125799:734.714 - 0.454ms returns 4 (0x4)
T330C 125799:734.723 JLINK_ReadMemEx(0x4001247C, 0x20 Bytes, Flags = 0x02000004)
T330C 125799:734.731   CPU_ReadMem(32 bytes @ 0x4001247C)
T330C 125799:735.300   Data:  00 00 00 00 00 00 00 00 00 00 00 00 00 00 00 00 ...
T330C 125799:735.311 - 0.590ms returns 32 (0x20)
T330C 125799:735.319 JLINK_ReadMemEx(0x4001249C, 0x4 Bytes, Flags = 0x02000004)
T330C 125799:735.326   CPU_ReadMem(4 bytes @ 0x4001249C)
T330C 125799:735.720   Data:  00 00 00 00
T330C 125799:735.730 - 0.414ms returns 4 (0x4)
T330C 125799:735.738 JLINK_ReadMemEx(0x400124B0, 0xC Bytes, Flags = 0x02000004)
T330C 125799:735.746   CPU_ReadMem(12 bytes @ 0x400124B0)
T330C 125799:736.155   Data:  00 00 00 00 00 00 00 00 00 00 00 00
T330C 125799:736.166 - 0.430ms returns 12 (0xC)
T330C 125799:736.174 JLINK_ReadMemEx(0x400124BC, 0x4 Bytes, Flags = 0x02000004)
T330C 125799:736.181   CPU_ReadMem(4 bytes @ 0x400124BC)
T330C 125799:736.539   Data:  00 00 00 00
T330C 125799:736.550 - 0.379ms returns 4 (0x4)
T330C 125799:770.399 JLINK_ReadMemEx(0x40012800, 0x74 Bytes, Flags = 0x02000004)
T330C 125799:770.449   CPU_ReadMem(116 bytes @ 0x40012800)
T330C 125799:771.349   Data:  00 00 00 00 00 00 00 00 00 00 00 00 00 00 00 00 ...
T330C 125799:771.359 - 0.964ms returns 116 (0x74)
T330C 125799:771.371 JLINK_ReadMemEx(0x40012874, 0x4 Bytes, Flags = 0x02000004)
T330C 125799:771.379   CPU_ReadMem(4 bytes @ 0x40012874)
T330C 125799:771.798   Data:  00 00 00 00
T330C 125799:771.808 - 0.440ms returns 4 (0x4)
T330C 125799:771.816 JLINK_ReadMemEx(0x4001287C, 0x20 Bytes, Flags = 0x02000004)
T330C 125799:771.823   CPU_ReadMem(32 bytes @ 0x4001287C)
T330C 125799:772.395   Data:  00 00 00 00 00 00 00 00 00 00 00 00 00 00 00 00 ...
T330C 125799:772.405 - 0.593ms returns 32 (0x20)
T330C 125799:772.414 JLINK_ReadMemEx(0x4001289C, 0x4 Bytes, Flags = 0x02000004)
T330C 125799:772.466   CPU_ReadMem(4 bytes @ 0x4001289C)
T330C 125799:772.870   Data:  00 00 00 00
T330C 125799:772.881 - 0.469ms returns 4 (0x4)
T330C 125799:772.889 JLINK_ReadMemEx(0x400128B0, 0xC Bytes, Flags = 0x02000004)
T330C 125799:772.897   CPU_ReadMem(12 bytes @ 0x400128B0)
T330C 125799:773.291   Data:  00 00 00 00 00 00 00 00 00 00 00 00
T330C 125799:773.300 - 0.414ms returns 12 (0xC)
T330C 125799:773.308 JLINK_ReadMemEx(0x400128BC, 0x4 Bytes, Flags = 0x02000004)
T330C 125799:773.316   CPU_ReadMem(4 bytes @ 0x400128BC)
T330C 125799:773.688   Data:  00 00 00 00
T330C 125799:773.698 - 0.392ms returns 4 (0x4)
T330C 125799:806.022 JLINK_ReadMemEx(0x40020000, 0x8 Bytes, Flags = 0x02000004)
T330C 125799:806.076   CPU_ReadMem(8 bytes @ 0x40020000)
T330C 125799:806.502   Data:  00 00 00 00 00 00 00 00
T330C 125799:806.529 - 0.511ms returns 8 (0x8)
T330C 125799:806.589 JLINK_ReadMemEx(0x40020008, 0x4 Bytes, Flags = 0x02000004)
T330C 125799:806.601   CPU_ReadMem(4 bytes @ 0x40020008)
T330C 125799:807.001   Data:  00 00 00 00
T330C 125799:807.012 - 0.426ms returns 4 (0x4)
T330C 125799:807.021 JLINK_ReadMemEx(0x4002000C, 0x4 Bytes, Flags = 0x02000004)
T330C 125799:807.028   CPU_ReadMem(4 bytes @ 0x4002000C)
T330C 125799:807.397   Data:  00 00 00 00
T330C 125799:807.408 - 0.390ms returns 4 (0x4)
T330C 125799:807.416 JLINK_ReadMemEx(0x40020010, 0x4 Bytes, Flags = 0x02000004)
T330C 125799:807.423   CPU_ReadMem(4 bytes @ 0x40020010)
T330C 125799:807.795   Data:  00 00 00 00
T330C 125799:807.808 - 0.395ms returns 4 (0x4)
T330C 125799:807.816 JLINK_ReadMemEx(0x40020014, 0x4 Bytes, Flags = 0x02000004)
T330C 125799:807.823   CPU_ReadMem(4 bytes @ 0x40020014)
T330C 125799:808.248   Data:  00 00 00 00
T330C 125799:808.258 - 0.445ms returns 4 (0x4)
T330C 125799:808.266 JLINK_ReadMemEx(0x4002001C, 0x4 Bytes, Flags = 0x02000004)
T330C 125799:808.274   CPU_ReadMem(4 bytes @ 0x4002001C)
T330C 125799:808.634   Data:  00 00 00 00
T330C 125799:808.644 - 0.380ms returns 4 (0x4)
T330C 125799:808.652 JLINK_ReadMemEx(0x40020020, 0x4 Bytes, Flags = 0x02000004)
T330C 125799:808.659   CPU_ReadMem(4 bytes @ 0x40020020)
T330C 125799:808.997   Data:  00 00 00 00
T330C 125799:809.007 - 0.358ms returns 4 (0x4)
T330C 125799:809.015 JLINK_ReadMemEx(0x40020024, 0x4 Bytes, Flags = 0x02000004)
T330C 125799:809.022   CPU_ReadMem(4 bytes @ 0x40020024)
T330C 125799:809.387   Data:  00 00 00 00
T330C 125799:809.397 - 0.385ms returns 4 (0x4)
T330C 125799:809.405 JLINK_ReadMemEx(0x40020028, 0x4 Bytes, Flags = 0x02000004)
T330C 125799:809.412   CPU_ReadMem(4 bytes @ 0x40020028)
T330C 125799:809.745   Data:  00 00 00 00
T330C 125799:809.755 - 0.353ms returns 4 (0x4)
T330C 125799:809.763 JLINK_ReadMemEx(0x40020030, 0x4 Bytes, Flags = 0x02000004)
T330C 125799:809.770   CPU_ReadMem(4 bytes @ 0x40020030)
T330C 125799:810.218   Data:  00 00 00 00
T330C 125799:810.228 - 0.467ms returns 4 (0x4)
T330C 125799:810.235 JLINK_ReadMemEx(0x40020034, 0x4 Bytes, Flags = 0x02000004)
T330C 125799:810.243   CPU_ReadMem(4 bytes @ 0x40020034)
T330C 125799:810.604   Data:  00 00 00 00
T330C 125799:810.614 - 0.381ms returns 4 (0x4)
T330C 125799:810.622 JLINK_ReadMemEx(0x40020038, 0x4 Bytes, Flags = 0x02000004)
T330C 125799:810.629   CPU_ReadMem(4 bytes @ 0x40020038)
T330C 125799:811.004   Data:  00 00 00 00
T330C 125799:811.014 - 0.395ms returns 4 (0x4)
T330C 125799:811.021 JLINK_ReadMemEx(0x4002003C, 0x4 Bytes, Flags = 0x02000004)
T330C 125799:811.029   CPU_ReadMem(4 bytes @ 0x4002003C)
T330C 125799:811.396   Data:  00 00 00 00
T330C 125799:811.406 - 0.388ms returns 4 (0x4)
T330C 125799:811.414 JLINK_ReadMemEx(0x40020044, 0x4 Bytes, Flags = 0x02000004)
T330C 125799:811.422   CPU_ReadMem(4 bytes @ 0x40020044)
T330C 125799:811.786   Data:  00 00 00 00
T330C 125799:811.796 - 0.384ms returns 4 (0x4)
T330C 125799:811.804 JLINK_ReadMemEx(0x40020048, 0x4 Bytes, Flags = 0x02000004)
T330C 125799:811.811   CPU_ReadMem(4 bytes @ 0x40020048)
T330C 125799:812.248   Data:  00 00 00 00
T330C 125799:812.258 - 0.459ms returns 4 (0x4)
T330C 125799:812.271 JLINK_ReadMemEx(0x4002004C, 0x4 Bytes, Flags = 0x02000004)
T330C 125799:812.278   CPU_ReadMem(4 bytes @ 0x4002004C)
T330C 125799:812.646   Data:  00 00 00 00
T330C 125799:812.656 - 0.387ms returns 4 (0x4)
T330C 125799:812.664 JLINK_ReadMemEx(0x40020050, 0x4 Bytes, Flags = 0x02000004)
T330C 125799:812.671   CPU_ReadMem(4 bytes @ 0x40020050)
T330C 125799:813.029   Data:  00 00 00 00
T330C 125799:813.039 - 0.378ms returns 4 (0x4)
T330C 125799:813.047 JLINK_ReadMemEx(0x40020058, 0x4 Bytes, Flags = 0x02000004)
T330C 125799:813.054   CPU_ReadMem(4 bytes @ 0x40020058)
T330C 125799:813.421   Data:  00 00 00 00
T330C 125799:813.430 - 0.386ms returns 4 (0x4)
T330C 125799:813.438 JLINK_ReadMemEx(0x4002005C, 0x4 Bytes, Flags = 0x02000004)
T330C 125799:813.445   CPU_ReadMem(4 bytes @ 0x4002005C)
T330C 125799:813.810   Data:  00 00 00 00
T330C 125799:813.819 - 0.384ms returns 4 (0x4)
T330C 125799:813.827 JLINK_ReadMemEx(0x40020060, 0x4 Bytes, Flags = 0x02000004)
T330C 125799:813.834   CPU_ReadMem(4 bytes @ 0x40020060)
T330C 125799:814.245   Data:  00 00 00 00
T330C 125799:814.255 - 0.430ms returns 4 (0x4)
T330C 125799:814.262 JLINK_ReadMemEx(0x40020064, 0x4 Bytes, Flags = 0x02000004)
T330C 125799:814.270   CPU_ReadMem(4 bytes @ 0x40020064)
T330C 125799:814.630   Data:  00 00 00 00
T330C 125799:814.639 - 0.379ms returns 4 (0x4)
T330C 125799:846.672 JLINK_ReadMemEx(0x40010000, 0x4 Bytes, Flags = 0x02000004)
T330C 125799:846.730   CPU_ReadMem(4 bytes @ 0x40010000)
T330C 125799:847.187   Data:  00 00 00 00
T330C 125799:847.198 - 0.529ms returns 4 (0x4)
T330C 125799:847.209 JLINK_ReadMemEx(0x40010008, 0xC Bytes, Flags = 0x02000004)
T330C 125799:847.217   CPU_ReadMem(12 bytes @ 0x40010008)
T330C 125799:847.628   Data:  00 00 00 00 00 00 00 00 00 00 00 00
T330C 125799:847.638 - 0.431ms returns 12 (0xC)
T330C 125799:847.646 JLINK_ReadMemEx(0x40010014, 0x4 Bytes, Flags = 0x02000004)
T330C 125799:847.656   CPU_ReadMem(4 bytes @ 0x40010014)
T330C 125799:848.030   Data:  00 00 00 00
T330C 125799:848.040 - 0.397ms returns 4 (0x4)
T330C 125799:848.048 JLINK_ReadMemEx(0x40010400, 0x14 Bytes, Flags = 0x02000004)
T330C 125799:848.055   CPU_ReadMem(20 bytes @ 0x40010400)
T330C 125799:848.504   Data:  00 00 00 00 00 00 00 00 00 00 00 00 00 00 00 00 ...
T330C 125799:848.514 - 0.469ms returns 20 (0x14)
T330C 125799:848.522 JLINK_ReadMemEx(0x40010414, 0x4 Bytes, Flags = 0x02000004)
T330C 125799:848.530   CPU_ReadMem(4 bytes @ 0x40010414)
T330C 125799:848.968   Data:  00 00 00 00
T330C 125799:848.978 - 0.459ms returns 4 (0x4)
T330C 125799:881.607 JLINK_ReadMemEx(0x48000800, 0xC Bytes, Flags = 0x02000004)
T330C 125799:881.658   CPU_ReadMem(12 bytes @ 0x48000800)
T330C 125799:882.144   Data:  00 00 00 00 00 00 00 00 00 00 00 00
T330C 125799:882.154 - 0.550ms returns 12 (0xC)
T330C 125799:882.224 JLINK_ReadMemEx(0x4800080C, 0x4 Bytes, Flags = 0x02000004)
T330C 125799:882.233   CPU_ReadMem(4 bytes @ 0x4800080C)
T330C 125799:882.651   Data:  00 00 00 00
T330C 125799:882.662 - 0.440ms returns 4 (0x4)
T330C 125799:882.671 JLINK_ReadMemEx(0x48000818, 0xC Bytes, Flags = 0x02000004)
T330C 125799:882.678   CPU_ReadMem(12 bytes @ 0x48000818)
T330C 125799:883.136   Data:  00 00 00 00 00 00 00 00 00 00 00 00
T330C 125799:883.146 - 0.478ms returns 12 (0xC)
T330C 125799:883.154 JLINK_ReadMemEx(0x48000824, 0x4 Bytes, Flags = 0x02000004)
T330C 125799:883.162   CPU_ReadMem(4 bytes @ 0x48000824)
T330C 125799:883.556   Data:  00 00 00 00
T330C 125799:883.566 - 0.414ms returns 4 (0x4)
T330C 125799:914.626 JLINK_ReadMemEx(0x48000C00, 0xC Bytes, Flags = 0x02000004)
T330C 125799:914.677   CPU_ReadMem(12 bytes @ 0x48000C00)
T330C 125799:915.151   Data:  00 00 00 00 00 00 00 00 00 00 00 00
T330C 125799:915.162 - 0.539ms returns 12 (0xC)
T330C 125799:915.172 JLINK_ReadMemEx(0x48000C0C, 0x4 Bytes, Flags = 0x02000004)
T330C 125799:915.180   CPU_ReadMem(4 bytes @ 0x48000C0C)
T330C 125799:915.553   Data:  00 00 00 00
T330C 125799:915.563 - 0.394ms returns 4 (0x4)
T330C 125799:915.571 JLINK_ReadMemEx(0x48000C18, 0xC Bytes, Flags = 0x02000004)
T330C 125799:915.584   CPU_ReadMem(12 bytes @ 0x48000C18)
T330C 125799:916.006   Data:  00 00 00 00 00 00 00 00 00 00 00 00
T330C 125799:916.019 - 0.450ms returns 12 (0xC)
T330C 125799:916.027 JLINK_ReadMemEx(0x48000C24, 0x4 Bytes, Flags = 0x02000004)
T330C 125799:916.035   CPU_ReadMem(4 bytes @ 0x48000C24)
T330C 125799:916.406   Data:  00 00 00 00
T330C 125799:916.417 - 0.392ms returns 4 (0x4)
T330C 125799:948.833 JLINK_ReadMemEx(0x40014400, 0x4 Bytes, Flags = 0x02000004)
T330C 125799:948.884   CPU_ReadMem(4 bytes @ 0x40014400)
T330C 125799:949.416   Data:  00 00 00 00
T330C 125799:949.427 - 0.597ms returns 4 (0x4)
T330C 125799:949.437 JLINK_ReadMemEx(0x40014404, 0x4 Bytes, Flags = 0x02000004)
T330C 125799:949.445   CPU_ReadMem(4 bytes @ 0x40014404)
T330C 125799:950.026   Data:  00 00 00 00
T330C 125799:950.036 - 0.602ms returns 4 (0x4)
T330C 125799:950.044 JLINK_ReadMemEx(0x4001440C, 0xC Bytes, Flags = 0x02000004)
T330C 125799:950.052   CPU_ReadMem(12 bytes @ 0x4001440C)
T330C 125799:950.449   Data:  00 00 00 00 00 00 00 00 00 00 00 00
T330C 125799:950.460 - 0.418ms returns 12 (0xC)
T330C 125799:950.468 JLINK_ReadMemEx(0x40014418, 0x4 Bytes, Flags = 0x02000004)
T330C 125799:950.475   CPU_ReadMem(4 bytes @ 0x40014418)
T330C 125799:950.846   Data:  00 00 00 00
T330C 125799:950.856 - 0.391ms returns 4 (0x4)
T330C 125799:950.864 JLINK_ReadMemEx(0x40014420, 0x14 Bytes, Flags = 0x02000004)
T330C 125799:950.871   CPU_ReadMem(20 bytes @ 0x40014420)
T330C 125799:951.284   Data:  00 00 00 00 00 00 00 00 00 00 00 00 00 00 00 00 ...
T330C 125799:951.294 - 0.433ms returns 20 (0x14)
T330C 125799:951.302 JLINK_ReadMemEx(0x40014434, 0x4 Bytes, Flags = 0x02000004)
T330C 125799:951.309   CPU_ReadMem(4 bytes @ 0x40014434)
T330C 125799:951.715   Data:  00 00 00 00
T330C 125799:951.724 - 0.426ms returns 4 (0x4)
T330C 125799:951.732 JLINK_ReadMemEx(0x40014444, 0x4 Bytes, Flags = 0x02000004)
T330C 125799:951.740   CPU_ReadMem(4 bytes @ 0x40014444)
T330C 125799:952.181   Data:  00 00 00 00
T330C 125799:952.191 - 0.461ms returns 4 (0x4)
T330C 125799:984.648 JLINK_ReadMemEx(0x40014800, 0x4 Bytes, Flags = 0x02000004)
T330C 125799:984.701   CPU_ReadMem(4 bytes @ 0x40014800)
T330C 125799:985.096   Data:  00 00 00 00
T330C 125799:985.120 - 0.475ms returns 4 (0x4)
T330C 125799:985.132 JLINK_ReadMemEx(0x40014804, 0x4 Bytes, Flags = 0x02000004)
T330C 125799:985.143   CPU_ReadMem(4 bytes @ 0x40014804)
T330C 125799:985.562   Data:  00 00 00 00
T330C 125799:985.573 - 0.443ms returns 4 (0x4)
T330C 125799:985.581 JLINK_ReadMemEx(0x4001480C, 0xC Bytes, Flags = 0x02000004)
T330C 125799:985.589   CPU_ReadMem(12 bytes @ 0x4001480C)
T330C 125799:986.003   Data:  00 00 00 00 00 00 00 00 00 00 00 00
T330C 125799:986.018 - 0.439ms returns 12 (0xC)
T330C 125799:986.027 JLINK_ReadMemEx(0x40014818, 0x4 Bytes, Flags = 0x02000004)
T330C 125799:986.034   CPU_ReadMem(4 bytes @ 0x40014818)
T330C 125799:986.431   Data:  00 00 00 00
T330C 125799:986.441 - 0.417ms returns 4 (0x4)
T330C 125799:986.449 JLINK_ReadMemEx(0x40014820, 0x14 Bytes, Flags = 0x02000004)
T330C 125799:986.456   CPU_ReadMem(20 bytes @ 0x40014820)
T330C 125799:986.945   Data:  00 00 00 00 00 00 00 00 00 00 00 00 00 00 00 00 ...
T330C 125799:986.956 - 0.510ms returns 20 (0x14)
T330C 125799:986.964 JLINK_ReadMemEx(0x40014834, 0x4 Bytes, Flags = 0x02000004)
T330C 125799:986.971   CPU_ReadMem(4 bytes @ 0x40014834)
T330C 125799:987.410   Data:  00 00 00 00
T330C 125799:987.420 - 0.459ms returns 4 (0x4)
T330C 125799:987.428 JLINK_ReadMemEx(0x40014844, 0x4 Bytes, Flags = 0x02000004)
T330C 125799:987.435   CPU_ReadMem(4 bytes @ 0x40014844)
T330C 125799:987.831   Data:  00 00 00 00
T330C 125799:987.841 - 0.416ms returns 4 (0x4)
T330C 125800:020.512 JLINK_ReadMemEx(0x40000400, 0x10 Bytes, Flags = 0x02000004)
T330C 125800:020.564   CPU_ReadMem(16 bytes @ 0x40000400)
T330C 125800:021.043   Data:  00 00 00 00 00 00 00 00 00 00 00 00 00 00 00 00
T330C 125800:021.067 - 0.558ms returns 16 (0x10)
T330C 125800:021.144 JLINK_ReadMemEx(0x40000410, 0x4 Bytes, Flags = 0x02000004)
T330C 125800:021.164   CPU_ReadMem(4 bytes @ 0x40000410)
T330C 125800:021.618   Data:  00 00 00 00
T330C 125800:021.629 - 0.487ms returns 4 (0x4)
T330C 125800:021.637 JLINK_ReadMemEx(0x40000418, 0x14 Bytes, Flags = 0x02000004)
T330C 125800:021.645   CPU_ReadMem(20 bytes @ 0x40000418)
T330C 125800:022.113   Data:  00 00 00 00 00 00 00 00 00 00 00 00 00 00 00 00 ...
T330C 125800:022.126 - 0.491ms returns 20 (0x14)
T330C 125800:022.134 JLINK_ReadMemEx(0x4000042C, 0x4 Bytes, Flags = 0x02000004)
T330C 125800:022.142   CPU_ReadMem(4 bytes @ 0x4000042C)
T330C 125800:022.566   Data:  00 00 00 00
T330C 125800:022.576 - 0.444ms returns 4 (0x4)
T330C 125800:022.584 JLINK_ReadMemEx(0x40000434, 0xC Bytes, Flags = 0x02000004)
T330C 125800:022.591   CPU_ReadMem(12 bytes @ 0x40000434)
T330C 125800:022.999   Data:  00 00 00 00 00 00 00 00 00 00 00 00
T330C 125800:023.008 - 0.427ms returns 12 (0xC)
T330C 125800:023.016 JLINK_ReadMemEx(0x40000440, 0x4 Bytes, Flags = 0x02000004)
T330C 125800:023.023   CPU_ReadMem(4 bytes @ 0x40000440)
T330C 125800:023.413   Data:  00 00 00 00
T330C 125800:023.423 - 0.409ms returns 4 (0x4)
T330C 125800:023.431 JLINK_ReadMemEx(0x40000450, 0x4 Bytes, Flags = 0x02000004)
T330C 125800:023.438   CPU_ReadMem(4 bytes @ 0x40000450)
T330C 125800:023.836   Data:  00 00 00 00
T330C 125800:023.845 - 0.417ms returns 4 (0x4)
T330C 125800:061.484 JLINK_ReadMemEx(0x40013800, 0x10 Bytes, Flags = 0x02000004)
T330C 125800:061.534   CPU_ReadMem(16 bytes @ 0x40013800)
T330C 125800:061.985   Data:  00 00 00 00 00 00 00 00 00 00 00 00 00 00 00 00
T330C 125800:061.996 - 0.515ms returns 16 (0x10)
T330C 125800:062.006 JLINK_ReadMemEx(0x40013810, 0x4 Bytes, Flags = 0x02000004)
T330C 125800:062.014   CPU_ReadMem(4 bytes @ 0x40013810)
T330C 125800:062.402   Data:  00 00 00 00
T330C 125800:062.412 - 0.408ms returns 4 (0x4)
T330C 125800:062.420 JLINK_ReadMemEx(0x40013818, 0x1C Bytes, Flags = 0x02000004)
T330C 125800:062.427   CPU_ReadMem(28 bytes @ 0x40013818)
T330C 125800:063.013   Data:  00 00 00 00 00 00 00 00 00 00 00 00 00 00 00 00 ...
T330C 125800:063.023 - 0.605ms returns 28 (0x1C)
T330C 125800:063.031 JLINK_ReadMemEx(0x40013834, 0x4 Bytes, Flags = 0x02000004)
T330C 125800:063.038   CPU_ReadMem(4 bytes @ 0x40013834)
T330C 125800:063.406   Data:  00 00 00 00
T330C 125800:063.415 - 0.387ms returns 4 (0x4)
T330C 125800:096.277 JLINK_ReadMemEx(0x40004400, 0x10 Bytes, Flags = 0x02000004)
T330C 125800:096.328   CPU_ReadMem(16 bytes @ 0x40004400)
T330C 125800:096.809   Data:  00 00 00 00 00 00 00 00 00 00 00 00 00 00 00 00
T330C 125800:096.820 - 0.546ms returns 16 (0x10)
T330C 125800:096.830 JLINK_ReadMemEx(0x40004410, 0x4 Bytes, Flags = 0x02000004)
T330C 125800:096.839   CPU_ReadMem(4 bytes @ 0x40004410)
T330C 125800:097.275   Data:  00 00 00 00
T330C 125800:097.285 - 0.457ms returns 4 (0x4)
T330C 125800:097.293 JLINK_ReadMemEx(0x40004418, 0x1C Bytes, Flags = 0x02000004)
T330C 125800:097.301   CPU_ReadMem(28 bytes @ 0x40004418)
T330C 125800:097.768   Data:  00 00 00 00 00 00 00 00 00 00 00 00 00 00 00 00 ...
T330C 125800:097.778 - 0.487ms returns 28 (0x1C)
T330C 125800:097.785 JLINK_ReadMemEx(0x40004434, 0x4 Bytes, Flags = 0x02000004)
T330C 125800:097.793   CPU_ReadMem(4 bytes @ 0x40004434)
T330C 125800:098.251   Data:  00 00 00 00
T330C 125800:098.261 - 0.478ms returns 4 (0x4)
T330C 125801:555.180 JLINK_HasError()
T330C 125801:555.251 JLINK_ReadReg(R0)
T330C 125801:555.891 - 0.643ms returns 0xFFFFFFFF
T330C 125801:555.899 JLINK_ReadReg(R1)
T330C 125801:555.905 - 0.008ms returns 0xFFFFFFFF
T330C 125801:555.911 JLINK_ReadReg(R2)
T330C 125801:555.917 - 0.008ms returns 0xFFFFFFFF
T330C 125801:555.923 JLINK_ReadReg(R3)
T330C 125801:555.929 - 0.008ms returns 0xFFFFFFFF
T330C 125801:555.935 JLINK_ReadReg(R4)
T330C 125801:555.941 - 0.008ms returns 0xFFFFFFFF
T330C 125801:555.947 JLINK_ReadReg(R5)
T330C 125801:555.952 - 0.008ms returns 0xFFFFFFFF
T330C 125801:555.959 JLINK_ReadReg(R6)
T330C 125801:556.009 - 0.055ms returns 0xFFFFFFFF
T330C 125801:556.018 JLINK_ReadReg(R7)
T330C 125801:556.024 - 0.008ms returns 0xFFFFFFFF
T330C 125801:556.030 JLINK_ReadReg(R8)
T330C 125801:556.036 - 0.008ms returns 0xFFFFFFFF
T330C 125801:556.042 JLINK_ReadReg(R9)
T330C 125801:556.048 - 0.008ms returns 0xFFFFFFFF
T330C 125801:556.054 JLINK_ReadReg(R10)
T330C 125801:556.059 - 0.008ms returns 0xFFFFFFFF
T330C 125801:556.065 JLINK_ReadReg(R11)
T330C 125801:556.071 - 0.008ms returns 0xFFFFFFFF
T330C 125801:556.077 JLINK_ReadReg(R12)
T330C 125801:556.083 - 0.008ms returns 0xFFFFFFFF
T330C 125801:556.089 JLINK_ReadReg(R13 (SP))
T330C 125801:556.095 - 0.008ms returns 0x20002000
T330C 125801:556.101 JLINK_ReadReg(R14)
T330C 125801:556.106 - 0.008ms returns 0xFFFFFFFF
T330C 125801:556.113 JLINK_ReadReg(R15 (PC))
T330C 125801:556.118 - 0.008ms returns 0x080000D4
T330C 125801:556.125 JLINK_ReadReg(XPSR)
T330C 125801:556.130 - 0.008ms returns 0xC1000000
T330C 125801:556.136 JLINK_ReadReg(MSP)
T330C 125801:556.142 - 0.008ms returns 0x20002000
T330C 125801:556.148 JLINK_ReadReg(PSP)
T330C 125801:556.153 - 0.008ms returns 0xFFFFFFFC
T330C 125801:556.160 JLINK_ReadReg(CFBP)
T330C 125801:556.165 - 0.011ms returns 0x00000000
T5DF4 125801:627.947 JLINK_ReadMemEx(0x080000D4, 0x2 Bytes, Flags = 0x02000000)
T5DF4 125801:627.991    -- Read from C cache (2 bytes @ 0x080000D4)
T5DF4 125801:628.001   Data:  06 48
T5DF4 125801:628.010 - 0.066ms returns 2 (0x2)
T5DF4 125801:628.019 JLINK_HasError()
T5DF4 125801:628.033 JLINK_SetBPEx(Addr = 0x080015D4, Type = 0xFFFFFFF2)
T5DF4 125801:628.042 - 0.012ms returns 0x00000001
T5DF4 125801:628.050 JLINK_HasError()
T5DF4 125801:628.057 JLINK_HasError()
T5DF4 125801:628.065 JLINK_Go()
T5DF4 125801:628.077   CPU_WriteMem(4 bytes @ 0xE0002000)
T5DF4 125801:628.655   CPU_ReadMem(4 bytes @ 0xE0001000)
T5DF4 125801:629.035   CPU_WriteMem(4 bytes @ 0xE0001000)
T5DF4 125801:629.442   CPU_WriteMem(4 bytes @ 0xE0002008)
T5DF4 125801:629.470   CPU_WriteMem(4 bytes @ 0xE000200C)
T5DF4 125801:629.480   CPU_WriteMem(4 bytes @ 0xE0002010)
T5DF4 125801:629.489   CPU_WriteMem(4 bytes @ 0xE0002014)
T5DF4 125801:630.374   CPU_WriteMem(4 bytes @ 0xE0001004)
T5DF4 125801:631.815 - 3.775ms
T5DF4 125801:732.792 JLINK_HasError()
T5DF4 125801:732.827 JLINK_IsHalted()
T5DF4 125801:734.858 - 2.047ms returns TRUE
T5DF4 125801:734.882 JLINK_HasError()
T5DF4 125801:734.890 JLINK_Halt()
T5DF4 125801:734.897 - 0.009ms returns 0x00
T5DF4 125801:734.904 JLINK_IsHalted()
T5DF4 125801:734.910 - 0.009ms returns TRUE
T5DF4 125801:734.917 JLINK_IsHalted()
T5DF4 125801:734.923 - 0.008ms returns TRUE
T5DF4 125801:734.930 JLINK_IsHalted()
T5DF4 125801:734.936 - 0.009ms returns TRUE
T5DF4 125801:734.944 JLINK_HasError()
T5DF4 125801:734.952 JLINK_ReadReg(R15 (PC))
T5DF4 125801:734.960 - 0.012ms returns 0x080015D4
T5DF4 125801:734.968 JLINK_ReadReg(XPSR)
T5DF4 125801:734.975 - 0.024ms returns 0x61000000
T5DF4 125801:735.000 JLINK_HasError()
T5DF4 125801:735.011 JLINK_ClrBPEx(BPHandle = 0x00000001)
T5DF4 125801:735.017 - 0.009ms returns 0x00
T5DF4 125801:735.024 JLINK_HasError()
T5DF4 125801:735.031 JLINK_HasError()
T5DF4 125801:735.039 JLINK_ReadMemU32(0xE000ED30, 0x1 Items)
T5DF4 125801:735.052   CPU_ReadMem(4 bytes @ 0xE000ED30)
T5DF4 125801:735.438   Data:  02 00 00 00
T5DF4 125801:735.458 - 0.423ms returns 1 (0x1)
T5DF4 125801:735.468 JLINK_ReadMemU32(0xE0001028, 0x1 Items)
T5DF4 125801:735.480   CPU_ReadMem(4 bytes @ 0xE0001028)
T5DF4 125801:735.941   Data:  00 00 00 00
T5DF4 125801:735.951   Debug reg: DWT_FUNC[0]
T5DF4 125801:735.960 - 0.494ms returns 1 (0x1)
T5DF4 125801:735.968 JLINK_ReadMemU32(0xE0001038, 0x1 Items)
T5DF4 125801:735.976   CPU_ReadMem(4 bytes @ 0xE0001038)
T5DF4 125801:736.347   Data:  00 00 00 00
T5DF4 125801:736.359   Debug reg: DWT_FUNC[1]
T5DF4 125801:736.368 - 0.403ms returns 1 (0x1)
T5DF4 125801:736.434 JLINK_HasError()
T5DF4 125801:736.442 JLINK_ReadReg(R0)
T5DF4 125801:736.449 - 0.010ms returns 0x080015D5
T5DF4 125801:736.456 JLINK_ReadReg(R1)
T5DF4 125801:736.467 - 0.013ms returns 0x200007F4
T5DF4 125801:736.474 JLINK_ReadReg(R2)
T5DF4 125801:736.480 - 0.009ms returns 0x00000000
T5DF4 125801:736.488 JLINK_ReadReg(R3)
T5DF4 125801:736.494 - 0.009ms returns 0x0800B4EF
T5DF4 125801:736.501 JLINK_ReadReg(R4)
T5DF4 125801:736.508 - 0.010ms returns 0x0800C6BC
T5DF4 125801:736.515 JLINK_ReadReg(R5)
T5DF4 125801:736.522 - 0.009ms returns 0x00000001
T5DF4 125801:736.529 JLINK_ReadReg(R6)
T5DF4 125801:736.535 - 0.009ms returns 0x0800C6BC
T5DF4 125801:736.542 JLINK_ReadReg(R7)
T5DF4 125801:736.548 - 0.009ms returns 0xFFFFFFFF
T5DF4 125801:736.555 JLINK_ReadReg(R8)
T5DF4 125801:736.561 - 0.009ms returns 0xFFFFFFFF
T5DF4 125801:736.568 JLINK_ReadReg(R9)
T5DF4 125801:736.574 - 0.009ms returns 0xFFFFFFFF
T5DF4 125801:736.581 JLINK_ReadReg(R10)
T5DF4 125801:736.587 - 0.009ms returns 0xFFFFFFFF
T5DF4 125801:736.594 JLINK_ReadReg(R11)
T5DF4 125801:736.600 - 0.009ms returns 0xFFFFFFFF
T5DF4 125801:736.607 JLINK_ReadReg(R12)
T5DF4 125801:736.614 - 0.009ms returns 0xFFFFFFFF
T5DF4 125801:736.620 JLINK_ReadReg(R13 (SP))
T5DF4 125801:736.627 - 0.009ms returns 0x20002000
T5DF4 125801:736.634 JLINK_ReadReg(R14)
T5DF4 125801:736.640 - 0.009ms returns 0x08001591
T5DF4 125801:736.648 JLINK_ReadReg(R15 (PC))
T5DF4 125801:736.655 - 0.009ms returns 0x080015D4
T5DF4 125801:736.662 JLINK_ReadReg(XPSR)
T5DF4 125801:736.668 - 0.009ms returns 0x61000000
T5DF4 125801:736.675 JLINK_ReadReg(MSP)
T5DF4 125801:736.681 - 0.009ms returns 0x20002000
T5DF4 125801:736.688 JLINK_ReadReg(PSP)
T5DF4 125801:736.694 - 0.009ms returns 0xFFFFFFFC
T5DF4 125801:736.701 JLINK_ReadReg(CFBP)
T5DF4 125801:736.708 - 0.009ms returns 0x00000000
T330C 125801:742.428 JLINK_ReadMemEx(0x48000800, 0xC Bytes, Flags = 0x02000004)
T330C 125801:742.470   CPU_ReadMem(12 bytes @ 0x48000800)
T330C 125801:742.979   Data:  00 00 00 00 00 00 00 00 00 00 00 00
T330C 125801:742.994 - 0.569ms returns 12 (0xC)
T330C 125801:743.005 JLINK_ReadMemEx(0x4800080C, 0x4 Bytes, Flags = 0x02000004)
T330C 125801:743.014   CPU_ReadMem(4 bytes @ 0x4800080C)
T330C 125801:743.391   Data:  00 00 00 00
T330C 125801:743.403 - 0.401ms returns 4 (0x4)
T330C 125801:743.411 JLINK_ReadMemEx(0x48000818, 0xC Bytes, Flags = 0x02000004)
T330C 125801:743.420   CPU_ReadMem(12 bytes @ 0x48000818)
T330C 125801:743.835   Data:  00 00 00 00 00 00 00 00 00 00 00 00
T330C 125801:743.857 - 0.449ms returns 12 (0xC)
T330C 125801:743.869 JLINK_ReadMemEx(0x48000824, 0x4 Bytes, Flags = 0x02000004)
T330C 125801:743.880   CPU_ReadMem(4 bytes @ 0x48000824)
T330C 125801:744.269   Data:  00 00 00 00
T330C 125801:744.287 - 0.421ms returns 4 (0x4)
T330C 125801:744.616 JLINK_ReadMemEx(0x40012800, 0x74 Bytes, Flags = 0x02000004)
T330C 125801:744.634   CPU_ReadMem(116 bytes @ 0x40012800)
T330C 125801:745.460   Data:  00 00 00 00 00 00 00 00 00 00 00 00 00 00 00 00 ...
T330C 125801:745.475 - 0.862ms returns 116 (0x74)
T330C 125801:745.485 JLINK_ReadMemEx(0x40012874, 0x4 Bytes, Flags = 0x02000004)
T330C 125801:745.495   CPU_ReadMem(4 bytes @ 0x40012874)
T330C 125801:745.950   Data:  00 00 00 00
T330C 125801:745.960 - 0.478ms returns 4 (0x4)
T330C 125801:745.969 JLINK_ReadMemEx(0x4001287C, 0x20 Bytes, Flags = 0x02000004)
T330C 125801:745.976   CPU_ReadMem(32 bytes @ 0x4001287C)
T330C 125801:746.463   Data:  00 00 00 00 00 00 00 00 00 00 00 00 00 00 00 00 ...
T330C 125801:746.477 - 0.512ms returns 32 (0x20)
T330C 125801:746.490 JLINK_ReadMemEx(0x4001289C, 0x4 Bytes, Flags = 0x02000004)
T330C 125801:746.499   CPU_ReadMem(4 bytes @ 0x4001289C)
T330C 125801:746.945   Data:  00 00 00 00
T330C 125801:746.964 - 0.477ms returns 4 (0x4)
T330C 125801:746.978 JLINK_ReadMemEx(0x400128B0, 0xC Bytes, Flags = 0x02000004)
T330C 125801:746.989   CPU_ReadMem(12 bytes @ 0x400128B0)
T330C 125801:747.392   Data:  00 00 00 00 00 00 00 00 00 00 00 00
T330C 125801:747.412 - 0.439ms returns 12 (0xC)
T330C 125801:747.428 JLINK_ReadMemEx(0x400128BC, 0x4 Bytes, Flags = 0x02000004)
T330C 125801:747.441   CPU_ReadMem(4 bytes @ 0x400128BC)
T330C 125801:747.840   Data:  00 00 00 00
T330C 125801:747.853 - 0.428ms returns 4 (0x4)
T330C 125801:748.323 JLINK_ReadMemEx(0x40012400, 0x74 Bytes, Flags = 0x02000004)
T330C 125801:748.339   CPU_ReadMem(116 bytes @ 0x40012400)
T330C 125801:749.185   Data:  00 00 00 00 00 00 00 00 00 00 00 00 00 00 00 00 ...
T330C 125801:749.196 - 0.876ms returns 116 (0x74)
T330C 125801:749.206 JLINK_ReadMemEx(0x40012474, 0x4 Bytes, Flags = 0x02000004)
T330C 125801:749.214   CPU_ReadMem(4 bytes @ 0x40012474)
T330C 125801:749.592   Data:  00 00 00 00
T330C 125801:749.603 - 0.400ms returns 4 (0x4)
T330C 125801:749.613 JLINK_ReadMemEx(0x4001247C, 0x20 Bytes, Flags = 0x02000004)
T330C 125801:749.621   CPU_ReadMem(32 bytes @ 0x4001247C)
T330C 125801:750.117   Data:  00 00 00 00 00 00 00 00 00 00 00 00 00 00 00 00 ...
T330C 125801:750.134 - 0.524ms returns 32 (0x20)
T330C 125801:750.145 JLINK_ReadMemEx(0x4001249C, 0x4 Bytes, Flags = 0x02000004)
T330C 125801:750.157   CPU_ReadMem(4 bytes @ 0x4001249C)
T330C 125801:750.527   Data:  00 00 00 00
T330C 125801:750.547 - 0.404ms returns 4 (0x4)
T330C 125801:750.560 JLINK_ReadMemEx(0x400124B0, 0xC Bytes, Flags = 0x02000004)
T330C 125801:750.570   CPU_ReadMem(12 bytes @ 0x400124B0)
T330C 125801:750.974   Data:  00 00 00 00 00 00 00 00 00 00 00 00
T330C 125801:750.988 - 0.431ms returns 12 (0xC)
T330C 125801:750.998 JLINK_ReadMemEx(0x400124BC, 0x4 Bytes, Flags = 0x02000004)
T330C 125801:751.010   CPU_ReadMem(4 bytes @ 0x400124BC)
T330C 125801:751.394   Data:  00 00 00 00
T330C 125801:751.411 - 0.416ms returns 4 (0x4)
T330C 125801:751.877 JLINK_ReadMemEx(0x40013800, 0x10 Bytes, Flags = 0x02000004)
T330C 125801:751.898   CPU_ReadMem(16 bytes @ 0x40013800)
T330C 125801:752.347   Data:  00 00 00 00 00 00 00 00 00 00 00 00 00 00 00 00
T330C 125801:752.370 - 0.496ms returns 16 (0x10)
T330C 125801:752.381 JLINK_ReadMemEx(0x40013810, 0x4 Bytes, Flags = 0x02000004)
T330C 125801:752.391   CPU_ReadMem(4 bytes @ 0x40013810)
T330C 125801:752.762   Data:  00 00 00 00
T330C 125801:752.780 - 0.401ms returns 4 (0x4)
T330C 125801:752.790 JLINK_ReadMemEx(0x40013818, 0x1C Bytes, Flags = 0x02000004)
T330C 125801:752.799   CPU_ReadMem(28 bytes @ 0x40013818)
T330C 125801:753.323   Data:  00 00 00 00 00 00 00 00 00 00 00 00 00 00 00 00 ...
T330C 125801:753.335 - 0.548ms returns 28 (0x1C)
T330C 125801:753.343 JLINK_ReadMemEx(0x40013834, 0x4 Bytes, Flags = 0x02000004)
T330C 125801:753.351   CPU_ReadMem(4 bytes @ 0x40013834)
T330C 125801:753.728   Data:  00 00 00 00
T330C 125801:753.739 - 0.399ms returns 4 (0x4)
T330C 125801:753.985 JLINK_ReadMemEx(0x40004400, 0x10 Bytes, Flags = 0x02000004)
T330C 125801:753.998   CPU_ReadMem(16 bytes @ 0x40004400)
T330C 125801:754.415   Data:  00 00 00 00 00 00 00 00 00 00 00 00 00 00 00 00
T330C 125801:754.426 - 0.444ms returns 16 (0x10)
T330C 125801:754.435 JLINK_ReadMemEx(0x40004410, 0x4 Bytes, Flags = 0x02000004)
T330C 125801:754.446   CPU_ReadMem(4 bytes @ 0x40004410)
T330C 125801:754.810   Data:  00 00 00 00
T330C 125801:754.821 - 0.388ms returns 4 (0x4)
T330C 125801:754.829 JLINK_ReadMemEx(0x40004418, 0x1C Bytes, Flags = 0x02000004)
T330C 125801:754.837   CPU_ReadMem(28 bytes @ 0x40004418)
T330C 125801:755.323   Data:  00 00 00 00 00 00 00 00 00 00 00 00 00 00 00 00 ...
T330C 125801:755.333 - 0.506ms returns 28 (0x1C)
T330C 125801:755.341 JLINK_ReadMemEx(0x40004434, 0x4 Bytes, Flags = 0x02000004)
T330C 125801:755.348   CPU_ReadMem(4 bytes @ 0x40004434)
T330C 125801:755.719   Data:  00 00 00 00
T330C 125801:755.730 - 0.391ms returns 4 (0x4)
T330C 125801:756.084 JLINK_ReadMemEx(0x48000C00, 0xC Bytes, Flags = 0x02000004)
T330C 125801:756.116   CPU_ReadMem(12 bytes @ 0x48000C00)
T330C 125801:756.505   Data:  00 00 00 00 00 00 00 00 00 00 00 00
T330C 125801:756.523 - 0.442ms returns 12 (0xC)
T330C 125801:756.533 JLINK_ReadMemEx(0x48000C0C, 0x4 Bytes, Flags = 0x02000004)
T330C 125801:756.542   CPU_ReadMem(4 bytes @ 0x48000C0C)
T330C 125801:756.939   Data:  00 00 00 00
T330C 125801:756.953 - 0.423ms returns 4 (0x4)
T330C 125801:756.963 JLINK_ReadMemEx(0x48000C18, 0xC Bytes, Flags = 0x02000004)
T330C 125801:756.977   CPU_ReadMem(12 bytes @ 0x48000C18)
T330C 125801:757.357   Data:  00 00 00 00 00 00 00 00 00 00 00 00
T330C 125801:757.373 - 0.413ms returns 12 (0xC)
T330C 125801:757.383 JLINK_ReadMemEx(0x48000C24, 0x4 Bytes, Flags = 0x02000004)
T330C 125801:757.392   CPU_ReadMem(4 bytes @ 0x48000C24)
T330C 125801:757.765   Data:  00 00 00 00
T330C 125801:757.779 - 0.400ms returns 4 (0x4)
T330C 125801:758.048 JLINK_ReadMemEx(0x40020000, 0x8 Bytes, Flags = 0x02000004)
T330C 125801:758.063   CPU_ReadMem(8 bytes @ 0x40020000)
T330C 125801:758.439   Data:  00 00 00 00 00 00 00 00
T330C 125801:758.451 - 0.406ms returns 8 (0x8)
T330C 125801:758.462 JLINK_ReadMemEx(0x40020008, 0x4 Bytes, Flags = 0x02000004)
T330C 125801:758.475   CPU_ReadMem(4 bytes @ 0x40020008)
T330C 125801:758.947   Data:  00 00 00 00
T330C 125801:758.959 - 0.500ms returns 4 (0x4)
T330C 125801:758.968 JLINK_ReadMemEx(0x4002000C, 0x4 Bytes, Flags = 0x02000004)
T330C 125801:758.976   CPU_ReadMem(4 bytes @ 0x4002000C)
T330C 125801:759.346   Data:  00 00 00 00
T330C 125801:759.357 - 0.391ms returns 4 (0x4)
T330C 125801:759.365 JLINK_ReadMemEx(0x40020010, 0x4 Bytes, Flags = 0x02000004)
T330C 125801:759.373   CPU_ReadMem(4 bytes @ 0x40020010)
T330C 125801:759.739   Data:  00 00 00 00
T330C 125801:759.749 - 0.387ms returns 4 (0x4)
T330C 125801:759.757 JLINK_ReadMemEx(0x40020014, 0x4 Bytes, Flags = 0x02000004)
T330C 125801:759.767   CPU_ReadMem(4 bytes @ 0x40020014)
T330C 125801:760.216   Data:  00 00 00 00
T330C 125801:760.226 - 0.472ms returns 4 (0x4)
T330C 125801:760.234 JLINK_ReadMemEx(0x4002001C, 0x4 Bytes, Flags = 0x02000004)
T330C 125801:760.241   CPU_ReadMem(4 bytes @ 0x4002001C)
T330C 125801:760.602   Data:  00 00 00 00
T330C 125801:760.613 - 0.382ms returns 4 (0x4)
T330C 125801:760.621 JLINK_ReadMemEx(0x40020020, 0x4 Bytes, Flags = 0x02000004)
T330C 125801:760.628   CPU_ReadMem(4 bytes @ 0x40020020)
T330C 125801:760.974   Data:  00 00 00 00
T330C 125801:760.988 - 0.370ms returns 4 (0x4)
T330C 125801:760.997 JLINK_ReadMemEx(0x40020024, 0x4 Bytes, Flags = 0x02000004)
T330C 125801:761.006   CPU_ReadMem(4 bytes @ 0x40020024)
T330C 125801:761.400   Data:  00 00 00 00
T330C 125801:761.421 - 0.426ms returns 4 (0x4)
T330C 125801:761.432 JLINK_ReadMemEx(0x40020028, 0x4 Bytes, Flags = 0x02000004)
T330C 125801:761.443   CPU_ReadMem(4 bytes @ 0x40020028)
T330C 125801:761.819   Data:  00 00 00 00
T330C 125801:761.831 - 0.402ms returns 4 (0x4)
T330C 125801:761.840 JLINK_ReadMemEx(0x40020030, 0x4 Bytes, Flags = 0x02000004)
T330C 125801:761.848   CPU_ReadMem(4 bytes @ 0x40020030)
T330C 125801:762.250   Data:  00 00 00 00
T330C 125801:762.270 - 0.432ms returns 4 (0x4)
T330C 125801:762.280 JLINK_ReadMemEx(0x40020034, 0x4 Bytes, Flags = 0x02000004)
T330C 125801:762.290   CPU_ReadMem(4 bytes @ 0x40020034)
T330C 125801:762.659   Data:  00 00 00 00
T330C 125801:762.669 - 0.392ms returns 4 (0x4)
T330C 125801:762.677 JLINK_ReadMemEx(0x40020038, 0x4 Bytes, Flags = 0x02000004)
T330C 125801:762.685   CPU_ReadMem(4 bytes @ 0x40020038)
T330C 125801:763.066   Data:  00 00 00 00
T330C 125801:763.075 - 0.401ms returns 4 (0x4)
T330C 125801:763.083 JLINK_ReadMemEx(0x4002003C, 0x4 Bytes, Flags = 0x02000004)
T330C 125801:763.091   CPU_ReadMem(4 bytes @ 0x4002003C)
T330C 125801:763.455   Data:  00 00 00 00
T330C 125801:763.466 - 0.386ms returns 4 (0x4)
T330C 125801:763.474 JLINK_ReadMemEx(0x40020044, 0x4 Bytes, Flags = 0x02000004)
T330C 125801:763.482   CPU_ReadMem(4 bytes @ 0x40020044)
T330C 125801:763.840   Data:  00 00 00 00
T330C 125801:763.850 - 0.378ms returns 4 (0x4)
T330C 125801:763.858 JLINK_ReadMemEx(0x40020048, 0x4 Bytes, Flags = 0x02000004)
T330C 125801:763.865   CPU_ReadMem(4 bytes @ 0x40020048)
T330C 125801:764.221   Data:  00 00 00 00
T330C 125801:764.231 - 0.376ms returns 4 (0x4)
T330C 125801:764.239 JLINK_ReadMemEx(0x4002004C, 0x4 Bytes, Flags = 0x02000004)
T330C 125801:764.246   CPU_ReadMem(4 bytes @ 0x4002004C)
T330C 125801:764.606   Data:  00 00 00 00
T330C 125801:764.625 - 0.389ms returns 4 (0x4)
T330C 125801:764.634 JLINK_ReadMemEx(0x40020050, 0x4 Bytes, Flags = 0x02000004)
T330C 125801:764.643   CPU_ReadMem(4 bytes @ 0x40020050)
T330C 125801:765.000   Data:  00 00 00 00
T330C 125801:765.016 - 0.385ms returns 4 (0x4)
T330C 125801:765.027 JLINK_ReadMemEx(0x40020058, 0x4 Bytes, Flags = 0x02000004)
T330C 125801:765.036   CPU_ReadMem(4 bytes @ 0x40020058)
T330C 125801:765.403   Data:  00 00 00 00
T330C 125801:765.415 - 0.391ms returns 4 (0x4)
T330C 125801:765.424 JLINK_ReadMemEx(0x4002005C, 0x4 Bytes, Flags = 0x02000004)
T330C 125801:765.431   CPU_ReadMem(4 bytes @ 0x4002005C)
T330C 125801:765.800   Data:  00 00 00 00
T330C 125801:765.811 - 0.389ms returns 4 (0x4)
T330C 125801:765.819 JLINK_ReadMemEx(0x40020060, 0x4 Bytes, Flags = 0x02000004)
T330C 125801:765.826   CPU_ReadMem(4 bytes @ 0x40020060)
T330C 125801:766.243   Data:  00 00 00 00
T330C 125801:766.253 - 0.437ms returns 4 (0x4)
T330C 125801:766.261 JLINK_ReadMemEx(0x40020064, 0x4 Bytes, Flags = 0x02000004)
T330C 125801:766.269   CPU_ReadMem(4 bytes @ 0x40020064)
T330C 125801:766.631   Data:  00 00 00 00
T330C 125801:766.640 - 0.382ms returns 4 (0x4)
T330C 125801:766.983 JLINK_ReadMemEx(0x40000400, 0x10 Bytes, Flags = 0x02000004)
T330C 125801:766.996   CPU_ReadMem(16 bytes @ 0x40000400)
T330C 125801:767.410   Data:  00 00 00 00 00 00 00 00 00 00 00 00 00 00 00 00
T330C 125801:767.433 - 0.454ms returns 16 (0x10)
T330C 125801:767.444 JLINK_ReadMemEx(0x40000410, 0x4 Bytes, Flags = 0x02000004)
T330C 125801:767.455   CPU_ReadMem(4 bytes @ 0x40000410)
T330C 125801:767.831   Data:  00 00 00 00
T330C 125801:767.848 - 0.408ms returns 4 (0x4)
